T3644 000:009.404   SEGGER J-Link V7.00 Log File
T3644 000:010.005   DLL Compiled: Apr  8 2021 14:30:05
T3644 000:010.010   Logging started @ 2023-09-04 03:22
T3644 000:010.014 - 10.016ms
T3644 000:010.175 JLINK_SetWarnOutHandler(...)
T3644 000:010.184 - 0.011ms
T3644 000:010.189 JLINK_OpenEx(...)
T3644 000:013.057   Firmware: J-Link V9 compiled May  7 2021 16:26:12
T3644 000:013.924   Firmware: J-Link V9 compiled May  7 2021 16:26:12
T3644 000:014.470   Decompressing FW timestamp took 393 us
T3644 000:037.897   Hardware: V9.40
T3644 000:037.925   S/N: 69405632
T3644 000:037.933   OEM: SEGGER
T3644 000:037.939   Feature(s): RDI, GDB, FlashDL, FlashBP, JFlash
T3644 000:041.550   TELNET listener socket opened on port 19021
T3644 000:041.620   WEBSRV Starting webserver
T3644 000:041.745   WEBSRV Webserver running on local port 19080
T3644 000:041.754 - 31.566ms returns "O.K."
T3644 000:041.769 JLINK_GetEmuCaps()
T3644 000:041.773 - 0.006ms returns 0xB9FF7BBF
T3644 000:041.784 JLINK_TIF_GetAvailable(...)
T3644 000:042.476 - 0.698ms
T3644 000:042.490 JLINK_SetErrorOutHandler(...)
T3644 000:042.494 - 0.006ms
T3644 000:042.638 JLINK_ExecCommand("ProjectFile = "D:\Users\admin\Desktop\V18_¬À≤®—°‘ÒÕÍ∫⁄∆¡«–ªÿ9039…Ë÷√“≥√Ê\JLinkSettings.ini"", ...). 
T3644 000:069.775   Ref file found at: D:\Keil_v5\ARM\Segger\JLinkDevices.ref
T3644 000:077.082   XML referenced by ref file: D:\Program Files (x86)\SEGGER\JLink\JLinkDevices.xml
T3644 000:077.693   D:\Program Files (x86)\SEGGER\JLink\JLinkDevices.xml evaluated successfully.
T3644 000:085.902 - 43.278ms returns 0x00
T3644 000:088.100 JLINK_ExecCommand("Device = SWM341xE", ...). 
T3644 000:095.451   Device "SWM341XE" selected.
T3644 000:095.718 - 7.608ms returns 0x00
T3644 000:095.736 JLINK_GetHardwareVersion()
T3644 000:095.741 - 0.007ms returns 94000
T3644 000:095.749 JLINK_GetDLLVersion()
T3644 000:095.754 - 0.006ms returns 70000
T3644 000:095.759 JLINK_GetOEMString(...)
T3644 000:095.765 JLINK_GetFirmwareString(...)
T3644 000:095.769 - 0.006ms
T3644 000:101.621 JLINK_GetDLLVersion()
T3644 000:101.637 - 0.018ms returns 70000
T3644 000:101.644 JLINK_GetCompileDateTime()
T3644 000:101.649 - 0.007ms
T3644 000:103.606 JLINK_GetFirmwareString(...)
T3644 000:103.622 - 0.017ms
T3644 000:106.271 JLINK_GetHardwareVersion()
T3644 000:106.285 - 0.017ms returns 94000
T3644 000:109.583 JLINK_GetSN()
T3644 000:109.596 - 0.015ms returns 69405632
T3644 000:112.382 JLINK_GetOEMString(...)
T3644 000:119.881 JLINK_TIF_Select(JLINKARM_TIF_SWD)
T3644 000:122.566 - 2.692ms returns 0x00
T3644 000:122.580 JLINK_HasError()
T3644 000:122.786 JLINK_SetSpeed(5000)
T3644 000:122.866 - 0.083ms
T3644 000:122.874 JLINK_GetId()
T3644 000:128.226   Found SW-DP with ID 0x1BE12AEB
T3644 000:140.896   DPIDR: 0x1BE12AEB
T3644 000:144.170   Scanning AP map to find all available APs
T3644 000:149.866   AP[1]: Stopped AP scan as end of AP map has been reached
T3644 000:154.988   AP[0]: AHB-AP (IDR: 0x1AEB0015)
T3644 000:159.528   Iterating through AP map to find AHB-AP to use
T3644 000:166.022   AP[0]: Core found
T3644 000:169.804   AP[0]: AHB-AP ROM base: 0xE00FE000
T3644 000:174.815   CPUID register: 0x630F1321. Implementer code: 0x63 (ARM China)
T3644 000:179.312   Found STAR r0p1, Little endian.
T3644 000:283.181   Identified core does not match configuration. (Found: STAR, Configured: Cortex-M33)
T3644 000:283.908   -- Max. mem block: 0x00010E60
T3644 000:285.202   CPU_ReadMem(4 bytes @ 0xE000EDF0)
T3644 000:285.920   CPU_WriteMem(4 bytes @ 0xE000EDF0)
T3644 000:286.486   CPU_ReadMem(4 bytes @ 0xE0002000)
T3644 000:290.026   FPUnit: 8 code (BP) slots and 0 literal slots
T3644 000:290.043   CPU_ReadMem(4 bytes @ 0xE000EDFC)
T3644 000:290.488   CPU_WriteMem(4 bytes @ 0xE000EDFC)
T3644 000:292.907   CPU_ReadMem(4 bytes @ 0xE0001000)
T3644 000:293.489   CPU_WriteMem(4 bytes @ 0xE0001000)
T3644 000:293.906   CPU_ReadMem(4 bytes @ 0xE000ED88)
T3644 000:294.490   CPU_WriteMem(4 bytes @ 0xE000ED88)
T3644 000:294.906   CPU_ReadMem(4 bytes @ 0xE000ED88)
T3644 000:295.498   CPU_WriteMem(4 bytes @ 0xE000ED88)
T3644 000:295.909   CPU_ReadMem(4 bytes @ 0xE000EFB8)
T3644 000:300.149   Security extension: not implemented
T3644 000:303.622   CoreSight components:
T3644 000:306.666   ROMTbl[0] @ E00FE000
T3644 000:306.691   CPU_ReadMem(64 bytes @ 0xE00FE000)
T3644 000:307.914   CPU_ReadMem(32 bytes @ 0xE00FFFE0)
T3644 000:312.453   ROMTbl[0][0]: E00FF000, CID: B105100D, PID: 001F5132 ROM Table
T3644 000:315.216   ROMTbl[1] @ E00FF000
T3644 000:315.229   CPU_ReadMem(64 bytes @ 0xE00FF000)
T3644 000:316.488   CPU_ReadMem(32 bytes @ 0xE000EFE0)
T3644 000:316.948   CPU_ReadMem(4 bytes @ 0xE000EFBC)
T3644 000:317.493   CPU_ReadMem(4 bytes @ 0xE000EFCC)
T3644 000:321.503   ROMTbl[1][0]: E000E000, CID: B105900D, PID: 001F5132 ???
T3644 000:321.526   CPU_ReadMem(32 bytes @ 0xE0001FE0)
T3644 000:322.512   CPU_ReadMem(4 bytes @ 0xE0001FBC)
T3644 000:324.912   CPU_ReadMem(4 bytes @ 0xE0001FCC)
T3644 000:330.010   ROMTbl[1][1]: E0001000, CID: B105900D, PID: 000F5132 DWT
T3644 000:330.028   CPU_ReadMem(32 bytes @ 0xE0002FE0)
T3644 000:330.510   CPU_ReadMem(4 bytes @ 0xE0002FBC)
T3644 000:330.910   CPU_ReadMem(4 bytes @ 0xE0002FCC)
T3644 000:336.354   ROMTbl[1][2]: E0002000, CID: B105900D, PID: 000F5132 FPB
T3644 000:336.377   CPU_ReadMem(32 bytes @ 0xE0000FE0)
T3644 000:336.937   CPU_ReadMem(4 bytes @ 0xE0000FBC)
T3644 000:337.493   CPU_ReadMem(4 bytes @ 0xE0000FCC)
T3644 000:341.255   ROMTbl[1][3]: E0000000, CID: B105900D, PID: 000F5132 ITM
T3644 000:341.276   CPU_ReadMem(32 bytes @ 0xE0042FE0)
T3644 000:341.933   CPU_ReadMem(4 bytes @ 0xE0042FBC)
T3644 000:342.493   CPU_ReadMem(4 bytes @ 0xE0042FCC)
T3644 000:345.860   ROMTbl[1][6]: E0042000, CID: B105900D, PID: 000F5132 CSS600-CTI
T3644 000:345.873   CPU_ReadMem(32 bytes @ 0xE0040FE0)
T3644 000:346.511   CPU_ReadMem(4 bytes @ 0xE0040FBC)
T3644 000:348.913   CPU_ReadMem(4 bytes @ 0xE0040FCC)
T3644 000:352.924   ROMTbl[0][1]: E0040000, CID: B105900D, PID: 000F5132 ???
T3644 000:353.500 - 230.631ms returns 0x1BE12AEB
T3644 000:353.516 JLINK_GetDLLVersion()
T3644 000:353.520 - 0.006ms returns 70000
T3644 000:353.527 JLINK_CORE_GetFound()
T3644 000:353.532 - 0.006ms returns 0xE0400FF
T3644 000:353.538 JLINK_GetDebugInfo(0x100 = JLINKARM_ROM_TABLE_ADDR_INDEX)
T3644 000:353.543   Value=0xE00FE000
T3644 000:353.550 - 0.013ms returns 0
T3644 000:356.673 JLINK_GetDebugInfo(0x100 = JLINKARM_ROM_TABLE_ADDR_INDEX)
T3644 000:356.685   Value=0xE00FE000
T3644 000:356.693 - 0.021ms returns 0
T3644 000:356.699 JLINK_GetDebugInfo(0x101 = JLINKARM_DEBUG_INFO_ETM_ADDR_INDEX)
T3644 000:356.703   Value=0x00000000
T3644 000:356.709 - 0.012ms returns 0
T3644 000:356.715 JLINK_ReadMemEx(0xE0041FF0, 0x10 Bytes, Flags = 0x02000004)
T3644 000:356.952   CPU_ReadMem(16 bytes @ 0xE0041FF0)
T3644 000:357.510   Data:  00 00 00 00 00 00 00 00 00 00 00 00 00 00 00 00
T3644 000:357.524 - 0.813ms returns 16 (0x10)
T3644 000:357.536 JLINK_GetDebugInfo(0x102 = JLINKARM_DEBUG_INFO_MTB_ADDR_INDEX)
T3644 000:357.545   Value=0x00000000
T3644 000:357.557 - 0.029ms returns 0
T3644 000:357.571 JLINK_GetDebugInfo(0x103 = JLINKARM_DEBUG_INFO_TPIU_ADDR_INDEX)
T3644 000:357.580   Value=0x00000000
T3644 000:357.587 - 0.019ms returns 0
T3644 000:357.594 JLINK_ReadMemEx(0xE0040FF0, 0x10 Bytes, Flags = 0x02000004)
T3644 000:357.604   CPU_ReadMem(16 bytes @ 0xE0040FF0)
T3644 000:358.501   Data:  0D 00 00 00 90 00 00 00 05 00 00 00 B1 00 00 00
T3644 000:358.511 - 0.919ms returns 16 (0x10)
T3644 000:358.518 JLINK_GetDebugInfo(0x104 = JLINKARM_DEBUG_INFO_ITM_ADDR_INDEX)
T3644 000:358.524   Value=0xE0000000
T3644 000:358.530 - 0.013ms returns 0
T3644 000:358.535 JLINK_GetDebugInfo(0x105 = JLINKARM_DEBUG_INFO_DWT_ADDR_INDEX)
T3644 000:358.540   Value=0xE0001000
T3644 000:358.546 - 0.012ms returns 0
T3644 000:358.551 JLINK_GetDebugInfo(0x106 = JLINKARM_DEBUG_INFO_FPB_ADDR_INDEX)
T3644 000:358.555   Value=0xE0002000
T3644 000:358.561 - 0.012ms returns 0
T3644 000:358.566 JLINK_GetDebugInfo(0x107 = JLINKARM_DEBUG_INFO_NVIC_ADDR_INDEX)
T3644 000:358.573   Value=0xE000E000
T3644 000:358.580 - 0.016ms returns 0
T3644 000:358.586 JLINK_GetDebugInfo(0x10C = JLINKARM_DEBUG_INFO_DBG_ADDR_INDEX)
T3644 000:358.590   Value=0xE000EDF0
T3644 000:358.596 - 0.012ms returns 0
T3644 000:358.601 JLINK_GetDebugInfo(0x01 = Unknown)
T3644 000:358.606   Value=0x00000001
T3644 000:358.611 - 0.012ms returns 0
T3644 000:358.617 JLINK_ReadMemU32(0xE000ED00, 0x1 Items)
T3644 000:358.625   CPU_ReadMem(4 bytes @ 0xE000ED00)
T3644 000:358.913   Data:  21 13 0F 63
T3644 000:358.924   Debug reg: CPUID
T3644 000:358.930 - 0.315ms returns 1 (0x1)
T3644 000:358.937 JLINK_GetDebugInfo(0x10F = JLINKARM_DEBUG_INFO_HAS_CORTEX_M_SECURITY_EXT_INDEX)
T3644 000:358.942   Value=0x00000000
T3644 000:358.948 - 0.013ms returns 0
T3644 000:358.954 JLINK_HasError()
T3644 000:358.960 JLINK_SetResetType(JLINKARM_CM3_RESET_TYPE_NORMAL)
T3644 000:358.964 - 0.006ms returns JLINKARM_CM3_RESET_TYPE_NORMAL
T3644 000:358.970 JLINK_Reset()
T3644 000:358.986   CPU is running
T3644 000:358.994   CPU_WriteMem(4 bytes @ 0xE000EDF0)
T3644 000:359.489   CPU_ReadMem(4 bytes @ 0xE000ED44)
T3644 000:360.490   CPU is running
T3644 000:360.501   CPU_WriteMem(4 bytes @ 0xE000EDFC)
T3644 000:364.441   Reset: Halt core after reset via DEMCR.VC_CORERESET.
T3644 000:368.735   Reset: Reset device via AIRCR.SYSRESETREQ.
T3644 000:368.756   CPU is running
T3644 000:368.771   CPU_WriteMem(4 bytes @ 0xE000ED0C)
T3644 000:423.500   CPU_ReadMem(4 bytes @ 0xE000EDF0)
T3644 000:423.912   CPU_ReadMem(4 bytes @ 0xE000EDF0)
T3644 000:424.913   CPU is running
T3644 000:424.925   CPU_WriteMem(4 bytes @ 0xE000EDF0)
T3644 000:425.911   CPU is running
T3644 000:425.923   CPU_WriteMem(4 bytes @ 0xE000EDFC)
T3644 000:431.776   CPU_ReadMem(4 bytes @ 0xE000EDF0)
T3644 000:436.552   CPU_ReadMem(4 bytes @ 0xE000EE08)
T3644 000:436.917   CPU_WriteMem(4 bytes @ 0xE0002000)
T3644 000:437.489   CPU_ReadMem(4 bytes @ 0xE000EDFC)
T3644 000:439.917   CPU_ReadMem(4 bytes @ 0xE0001000)
T3644 000:440.916   CPU_ReadMem(4 bytes @ 0xE000EE08)
T3644 000:441.497 - 82.531ms
T3644 000:441.510 JLINK_Halt()
T3644 000:441.515 - 0.006ms returns 0x00
T3644 000:441.522 JLINK_ReadMemU32(0xE000EDF0, 0x1 Items)
T3644 000:441.534   CPU_ReadMem(4 bytes @ 0xE000EDF0)
T3644 000:442.493   Data:  03 00 03 00
T3644 000:442.504   Debug reg: DHCSR
T3644 000:442.511 - 0.990ms returns 1 (0x1)
T3644 000:442.519 JLINK_WriteU32_64(0xE000EDF0, 0xA05F0003)
T3644 000:442.524   Debug reg: DHCSR
T3644 000:442.766   CPU_WriteMem(4 bytes @ 0xE000EDF0)
T3644 000:443.491 - 0.977ms returns 0 (0x00000000)
T3644 000:443.504 JLINK_WriteU32_64(0xE000EDFC, 0x01000000)
T3644 000:443.509   Debug reg: DEMCR
T3644 000:443.519   CPU_WriteMem(4 bytes @ 0xE000EDFC)
T3644 000:443.910 - 0.408ms returns 0 (0x00000000)
T3644 000:457.893 JLINK_GetHWStatus(...)
T3644 000:458.501 - 0.619ms returns 0
T3644 000:470.790 JLINK_GetNumBPUnits(Type = 0xFFFFFF00)
T3644 000:470.814 - 0.028ms returns 0x08
T3644 000:470.824 JLINK_GetNumBPUnits(Type = 0xF0)
T3644 000:470.832 - 0.012ms returns 0x2000
T3644 000:470.842 JLINK_GetNumWPUnits()
T3644 000:470.849 - 0.011ms returns 4
T3644 000:480.156 JLINK_GetSpeed()
T3644 000:480.172 - 0.019ms returns 4000
T3644 000:487.276 JLINK_ReadMemU32(0xE000E004, 0x1 Items)
T3644 000:487.315   CPU_ReadMem(4 bytes @ 0xE000E004)
T3644 000:487.922   Data:  02 00 00 00
T3644 000:487.934 - 0.660ms returns 1 (0x1)
T3644 000:487.946 JLINK_Halt()
T3644 000:487.951 - 0.007ms returns 0x00
T3644 000:487.956 JLINK_IsHalted()
T3644 000:487.972 - 0.018ms returns TRUE
T3644 000:494.973 JLINK_WriteMem(0x20000000, 0x9F4 Bytes, ...)
T3644 000:494.986   Data:  00 BE 0A E0 0D 78 2D 06 68 40 08 24 40 00 00 D3 ...
T3644 000:495.274   CPU_WriteMem(2548 bytes @ 0x20000000)
T3644 000:512.932 - 17.972ms returns 0x9F4
T3644 000:512.990 JLINK_HasError()
T3644 000:512.999 JLINK_WriteReg(R0, 0x00000000)
T3644 000:513.017   CPU_ReadMem(4 bytes @ 0xE000EE08)
T3644 000:513.496 - 0.503ms returns 0
T3644 000:513.509 JLINK_WriteReg(R1, 0x00B71B00)
T3644 000:513.519 - 0.014ms returns 0
T3644 000:513.526 JLINK_WriteReg(R2, 0x00000001)
T3644 000:513.532 - 0.007ms returns 0
T3644 000:513.537 JLINK_WriteReg(R3, 0x00000000)
T3644 000:513.542 - 0.007ms returns 0
T3644 000:513.548 JLINK_WriteReg(R4, 0x00000000)
T3644 000:513.552 - 0.007ms returns 0
T3644 000:513.558 JLINK_WriteReg(R5, 0x00000000)
T3644 000:513.563 - 0.007ms returns 0
T3644 000:513.568 JLINK_WriteReg(R6, 0x00000000)
T3644 000:513.573 - 0.007ms returns 0
T3644 000:513.578 JLINK_WriteReg(R7, 0x00000000)
T3644 000:513.583 - 0.007ms returns 0
T3644 000:513.588 JLINK_WriteReg(R8, 0x00000000)
T3644 000:513.601 - 0.015ms returns 0
T3644 000:513.606 JLINK_WriteReg(R9, 0x200009D8)
T3644 000:513.611 - 0.007ms returns 0
T3644 000:513.616 JLINK_WriteReg(R10, 0x00000000)
T3644 000:513.621 - 0.006ms returns 0
T3644 000:513.626 JLINK_WriteReg(R11, 0x00000000)
T3644 000:513.631 - 0.006ms returns 0
T3644 000:513.636 JLINK_WriteReg(R12, 0x00000000)
T3644 000:513.641 - 0.006ms returns 0
T3644 000:513.646 JLINK_WriteReg(R13 (SP), 0x20004000)
T3644 000:513.652 - 0.007ms returns 0
T3644 000:513.657 JLINK_WriteReg(R14, 0x20000001)
T3644 000:513.662 - 0.007ms returns 0
T3644 000:513.667 JLINK_WriteReg(R15 (PC), 0x20000038)
T3644 000:513.673 - 0.008ms returns 0
T3644 000:513.679 JLINK_WriteReg(XPSR, 0x01000000)
T3644 000:513.684 - 0.007ms returns 0
T3644 000:513.689 JLINK_WriteReg(MSP, 0x20004000)
T3644 000:513.694 - 0.006ms returns 0
T3644 000:513.699 JLINK_WriteReg(PSP, 0x20004000)
T3644 000:513.704 - 0.007ms returns 0
T3644 000:513.709 JLINK_WriteReg(CFBP, 0x00000000)
T3644 000:513.714 - 0.006ms returns 0
T3644 000:513.719 JLINK_SetBPEx(Addr = 0x20000000, Type = 0xFFFFFFF2)
T3644 000:513.725 - 0.008ms returns 0x00000001
T3644 000:513.730 JLINK_Go()
T3644 000:513.738   CPU_WriteMem(4 bytes @ 0xE0002000)
T3644 000:514.501   CPU_ReadMem(4 bytes @ 0xE0001000)
T3644 000:514.915   CPU_WriteMem(4 bytes @ 0xE0002008)
T3644 000:514.924   CPU_WriteMem(4 bytes @ 0xE000200C)
T3644 000:514.930   CPU_WriteMem(4 bytes @ 0xE0002010)
T3644 000:514.937   CPU_WriteMem(4 bytes @ 0xE0002014)
T3644 000:514.943   CPU_WriteMem(4 bytes @ 0xE0002018)
T3644 000:514.949   CPU_WriteMem(4 bytes @ 0xE000201C)
T3644 000:514.956   CPU_WriteMem(4 bytes @ 0xE0002020)
T3644 000:514.962   CPU_WriteMem(4 bytes @ 0xE0002024)
T3644 000:516.937   CPU_WriteMem(4 bytes @ 0xE0001004)
T3644 000:520.507 - 6.794ms
T3644 000:520.535 JLINK_IsHalted()
T3644 000:523.533 - 3.014ms returns TRUE
T3644 000:523.559 JLINK_ReadReg(R15 (PC))
T3644 000:523.574   CPU_ReadMem(4 bytes @ 0xE000EE08)
T3644 000:523.920 - 0.368ms returns 0x20000000
T3644 000:523.934 JLINK_ClrBPEx(BPHandle = 0x00000001)
T3644 000:523.943 - 0.013ms returns 0x00
T3644 000:523.952 JLINK_ReadReg(R0)
T3644 000:523.963 - 0.014ms returns 0x00000000
T3644 000:524.594 JLINK_HasError()
T3644 000:524.610 JLINK_WriteReg(R0, 0x00000000)
T3644 000:524.618 - 0.011ms returns 0
T3644 000:524.625 JLINK_WriteReg(R1, 0x00B71B00)
T3644 000:524.630 - 0.007ms returns 0
T3644 000:524.636 JLINK_WriteReg(R2, 0x00000001)
T3644 000:524.641 - 0.007ms returns 0
T3644 000:524.646 JLINK_WriteReg(R3, 0x00000000)
T3644 000:524.651 - 0.007ms returns 0
T3644 000:524.656 JLINK_WriteReg(R4, 0x00000000)
T3644 000:524.661 - 0.007ms returns 0
T3644 000:524.666 JLINK_WriteReg(R5, 0x00000000)
T3644 000:524.671 - 0.007ms returns 0
T3644 000:524.677 JLINK_WriteReg(R6, 0x00000000)
T3644 000:524.681 - 0.006ms returns 0
T3644 000:524.687 JLINK_WriteReg(R7, 0x00000000)
T3644 000:524.691 - 0.006ms returns 0
T3644 000:524.697 JLINK_WriteReg(R8, 0x00000000)
T3644 000:524.702 - 0.007ms returns 0
T3644 000:524.707 JLINK_WriteReg(R9, 0x200009D8)
T3644 000:524.712 - 0.006ms returns 0
T3644 000:524.717 JLINK_WriteReg(R10, 0x00000000)
T3644 000:524.722 - 0.007ms returns 0
T3644 000:524.727 JLINK_WriteReg(R11, 0x00000000)
T3644 000:524.732 - 0.007ms returns 0
T3644 000:524.737 JLINK_WriteReg(R12, 0x00000000)
T3644 000:524.742 - 0.006ms returns 0
T3644 000:524.747 JLINK_WriteReg(R13 (SP), 0x20004000)
T3644 000:524.801 - 0.060ms returns 0
T3644 000:524.813 JLINK_WriteReg(R14, 0x20000001)
T3644 000:524.819 - 0.010ms returns 0
T3644 000:524.828 JLINK_WriteReg(R15 (PC), 0x200000C0)
T3644 000:524.834 - 0.010ms returns 0
T3644 000:524.842 JLINK_WriteReg(XPSR, 0x01000000)
T3644 000:524.851 - 0.012ms returns 0
T3644 000:524.859 JLINK_WriteReg(MSP, 0x20004000)
T3644 000:524.867 - 0.011ms returns 0
T3644 000:524.875 JLINK_WriteReg(PSP, 0x20004000)
T3644 000:524.882 - 0.011ms returns 0
T3644 000:524.890 JLINK_WriteReg(CFBP, 0x00000000)
T3644 000:524.898 - 0.011ms returns 0
T3644 000:524.906 JLINK_SetBPEx(Addr = 0x20000000, Type = 0xFFFFFFF2)
T3644 000:524.915 - 0.012ms returns 0x00000002
T3644 000:524.924 JLINK_Go()
T3644 000:524.935   CPU_WriteMem(4 bytes @ 0xE0002000)
T3644 000:525.503   CPU_ReadMem(4 bytes @ 0xE0001000)
T3644 000:529.496 - 4.579ms
T3644 000:529.508 JLINK_IsHalted()
T3644 000:530.493 - 0.991ms returns FALSE
T3644 000:530.506 JLINK_HasError()
T3644 000:550.217 JLINK_IsHalted()
T3644 000:550.927 - 0.720ms returns FALSE
T3644 000:550.945 JLINK_HasError()
T3644 000:552.260 JLINK_IsHalted()
T3644 000:552.922 - 0.669ms returns FALSE
T3644 000:552.937 JLINK_HasError()
T3644 000:554.291 JLINK_IsHalted()
T3644 000:554.922 - 0.638ms returns FALSE
T3644 000:554.936 JLINK_HasError()
T3644 000:556.825 JLINK_IsHalted()
T3644 000:557.500 - 0.678ms returns FALSE
T3644 000:557.509 JLINK_HasError()
T3644 000:558.834 JLINK_IsHalted()
T3644 000:559.920 - 1.094ms returns FALSE
T3644 000:559.935 JLINK_HasError()
T3644 000:561.832 JLINK_IsHalted()
T3644 000:562.500 - 0.675ms returns FALSE
T3644 000:562.514 JLINK_HasError()
T3644 000:563.885 JLINK_IsHalted()
T3644 000:564.499 - 0.620ms returns FALSE
T3644 000:564.513 JLINK_HasError()
T3644 000:566.266 JLINK_IsHalted()
T3644 000:566.919 - 0.659ms returns FALSE
T3644 000:566.931 JLINK_HasError()
T3644 000:568.321 JLINK_IsHalted()
T3644 000:568.930 - 0.619ms returns FALSE
T3644 000:568.950 JLINK_HasError()
T3644 000:570.334 JLINK_IsHalted()
T3644 000:570.923 - 0.598ms returns FALSE
T3644 000:570.940 JLINK_HasError()
T3644 000:572.327 JLINK_IsHalted()
T3644 000:572.922 - 0.601ms returns FALSE
T3644 000:572.937 JLINK_HasError()
T3644 000:574.331 JLINK_IsHalted()
T3644 000:574.925 - 0.602ms returns FALSE
T3644 000:574.941 JLINK_HasError()
T3644 000:576.330 JLINK_IsHalted()
T3644 000:576.919 - 0.595ms returns FALSE
T3644 000:576.931 JLINK_HasError()
T3644 000:578.329 JLINK_IsHalted()
T3644 000:578.924 - 0.602ms returns FALSE
T3644 000:578.940 JLINK_HasError()
T3644 000:580.330 JLINK_IsHalted()
T3644 000:580.920 - 0.597ms returns FALSE
T3644 000:580.933 JLINK_HasError()
T3644 000:582.328 JLINK_IsHalted()
T3644 000:583.497 - 1.176ms returns FALSE
T3644 000:583.510 JLINK_HasError()
T3644 000:585.331 JLINK_IsHalted()
T3644 000:585.922 - 0.600ms returns FALSE
T3644 000:585.938 JLINK_HasError()
T3644 000:587.331 JLINK_IsHalted()
T3644 000:587.918 - 0.593ms returns FALSE
T3644 000:587.931 JLINK_HasError()
T3644 000:589.332 JLINK_IsHalted()
T3644 000:589.922 - 0.593ms returns FALSE
T3644 000:589.931 JLINK_HasError()
T3644 000:591.333 JLINK_IsHalted()
T3644 000:591.922 - 0.598ms returns FALSE
T3644 000:591.938 JLINK_HasError()
T3644 000:593.332 JLINK_IsHalted()
T3644 000:593.917 - 0.589ms returns FALSE
T3644 000:593.926 JLINK_HasError()
T3644 000:595.330 JLINK_IsHalted()
T3644 000:595.916 - 0.590ms returns FALSE
T3644 000:595.926 JLINK_HasError()
T3644 000:597.332 JLINK_IsHalted()
T3644 000:597.919 - 0.593ms returns FALSE
T3644 000:597.932 JLINK_HasError()
T3644 000:599.332 JLINK_IsHalted()
T3644 000:599.921 - 0.596ms returns FALSE
T3644 000:599.935 JLINK_HasError()
T3644 000:601.336 JLINK_IsHalted()
T3644 000:601.922 - 0.596ms returns FALSE
T3644 000:601.939 JLINK_HasError()
T3644 000:603.339 JLINK_IsHalted()
T3644 000:603.921 - 0.588ms returns FALSE
T3644 000:603.934 JLINK_HasError()
T3644 000:605.335 JLINK_IsHalted()
T3644 000:608.977 - 3.655ms returns TRUE
T3644 000:608.999 JLINK_ReadReg(R15 (PC))
T3644 000:609.020   CPU_ReadMem(4 bytes @ 0xE000EE08)
T3644 000:609.504 - 0.513ms returns 0x20000000
T3644 000:609.520 JLINK_ClrBPEx(BPHandle = 0x00000002)
T3644 000:609.529 - 0.012ms returns 0x00
T3644 000:609.536 JLINK_ReadReg(R0)
T3644 000:609.542 - 0.008ms returns 0x00000000
T3644 000:663.337 JLINK_HasError()
T3644 000:663.359 JLINK_WriteReg(R0, 0x00000001)
T3644 000:663.373 - 0.016ms returns 0
T3644 000:663.379 JLINK_WriteReg(R1, 0x00B71B00)
T3644 000:663.385 - 0.008ms returns 0
T3644 000:663.391 JLINK_WriteReg(R2, 0x00000001)
T3644 000:663.396 - 0.007ms returns 0
T3644 000:663.401 JLINK_WriteReg(R3, 0x00000000)
T3644 000:663.406 - 0.006ms returns 0
T3644 000:663.411 JLINK_WriteReg(R4, 0x00000000)
T3644 000:663.415 - 0.006ms returns 0
T3644 000:663.421 JLINK_WriteReg(R5, 0x00000000)
T3644 000:663.425 - 0.006ms returns 0
T3644 000:663.431 JLINK_WriteReg(R6, 0x00000000)
T3644 000:663.435 - 0.006ms returns 0
T3644 000:663.440 JLINK_WriteReg(R7, 0x00000000)
T3644 000:663.445 - 0.007ms returns 0
T3644 000:663.450 JLINK_WriteReg(R8, 0x00000000)
T3644 000:663.455 - 0.006ms returns 0
T3644 000:663.460 JLINK_WriteReg(R9, 0x200009D8)
T3644 000:663.465 - 0.007ms returns 0
T3644 000:663.471 JLINK_WriteReg(R10, 0x00000000)
T3644 000:663.475 - 0.006ms returns 0
T3644 000:663.480 JLINK_WriteReg(R11, 0x00000000)
T3644 000:663.485 - 0.006ms returns 0
T3644 000:663.490 JLINK_WriteReg(R12, 0x00000000)
T3644 000:663.495 - 0.006ms returns 0
T3644 000:663.500 JLINK_WriteReg(R13 (SP), 0x20004000)
T3644 000:663.506 - 0.008ms returns 0
T3644 000:663.512 JLINK_WriteReg(R14, 0x20000001)
T3644 000:663.516 - 0.006ms returns 0
T3644 000:663.522 JLINK_WriteReg(R15 (PC), 0x200000BC)
T3644 000:663.526 - 0.007ms returns 0
T3644 000:663.532 JLINK_WriteReg(XPSR, 0x01000000)
T3644 000:663.537 - 0.006ms returns 0
T3644 000:663.542 JLINK_WriteReg(MSP, 0x20004000)
T3644 000:663.546 - 0.006ms returns 0
T3644 000:663.551 JLINK_WriteReg(PSP, 0x20004000)
T3644 000:663.556 - 0.006ms returns 0
T3644 000:663.561 JLINK_WriteReg(CFBP, 0x00000000)
T3644 000:663.566 - 0.006ms returns 0
T3644 000:663.571 JLINK_SetBPEx(Addr = 0x20000000, Type = 0xFFFFFFF2)
T3644 000:663.577 - 0.008ms returns 0x00000003
T3644 000:663.583 JLINK_Go()
T3644 000:663.591   CPU_WriteMem(4 bytes @ 0xE0002000)
T3644 000:664.509   CPU_ReadMem(4 bytes @ 0xE0001000)
T3644 000:669.923 - 6.354ms
T3644 000:669.948 JLINK_IsHalted()
T3644 000:673.524 - 3.588ms returns TRUE
T3644 000:673.546 JLINK_ReadReg(R15 (PC))
T3644 000:673.557   CPU_ReadMem(4 bytes @ 0xE000EE08)
T3644 000:673.928 - 0.391ms returns 0x20000000
T3644 000:673.948 JLINK_ClrBPEx(BPHandle = 0x00000003)
T3644 000:673.957 - 0.013ms returns 0x00
T3644 000:673.967 JLINK_ReadReg(R0)
T3644 000:673.977 - 0.012ms returns 0x00000000
T3644 000:678.607 JLINK_WriteMem(0x20000000, 0xF98 Bytes, ...)
T3644 000:678.619   Data:  00 BE 0A E0 0D 78 2D 06 68 40 08 24 40 00 00 D3 ...
T3644 000:678.638   CPU_WriteMem(3992 bytes @ 0x20000000)
T3644 000:708.518 - 29.925ms returns 0xF98
T3644 000:708.574 JLINK_HasError()
T3644 000:708.582 JLINK_WriteReg(R0, 0x70000000)
T3644 000:708.594 - 0.014ms returns 0
T3644 000:708.600 JLINK_WriteReg(R1, 0x00B71B00)
T3644 000:708.605 - 0.007ms returns 0
T3644 000:708.611 JLINK_WriteReg(R2, 0x00000001)
T3644 000:708.616 - 0.007ms returns 0
T3644 000:708.621 JLINK_WriteReg(R3, 0x00000000)
T3644 000:708.626 - 0.006ms returns 0
T3644 000:708.631 JLINK_WriteReg(R4, 0x00000000)
T3644 000:708.636 - 0.007ms returns 0
T3644 000:708.641 JLINK_WriteReg(R5, 0x00000000)
T3644 000:708.646 - 0.006ms returns 0
T3644 000:708.651 JLINK_WriteReg(R6, 0x00000000)
T3644 000:708.656 - 0.007ms returns 0
T3644 000:708.661 JLINK_WriteReg(R7, 0x00000000)
T3644 000:708.666 - 0.007ms returns 0
T3644 000:708.671 JLINK_WriteReg(R8, 0x00000000)
T3644 000:708.676 - 0.007ms returns 0
T3644 000:708.681 JLINK_WriteReg(R9, 0x20000F8C)
T3644 000:708.686 - 0.006ms returns 0
T3644 000:708.691 JLINK_WriteReg(R10, 0x00000000)
T3644 000:708.696 - 0.007ms returns 0
T3644 000:708.704 JLINK_WriteReg(R11, 0x00000000)
T3644 000:708.710 - 0.008ms returns 0
T3644 000:708.716 JLINK_WriteReg(R12, 0x00000000)
T3644 000:708.720 - 0.007ms returns 0
T3644 000:708.726 JLINK_WriteReg(R13 (SP), 0x20004000)
T3644 000:708.731 - 0.007ms returns 0
T3644 000:708.736 JLINK_WriteReg(R14, 0x20000001)
T3644 000:708.741 - 0.007ms returns 0
T3644 000:708.747 JLINK_WriteReg(R15 (PC), 0x20000038)
T3644 000:708.752 - 0.007ms returns 0
T3644 000:708.757 JLINK_WriteReg(XPSR, 0x01000000)
T3644 000:708.762 - 0.007ms returns 0
T3644 000:708.767 JLINK_WriteReg(MSP, 0x20004000)
T3644 000:708.772 - 0.006ms returns 0
T3644 000:708.777 JLINK_WriteReg(PSP, 0x20004000)
T3644 000:708.782 - 0.007ms returns 0
T3644 000:708.787 JLINK_WriteReg(CFBP, 0x00000000)
T3644 000:708.792 - 0.007ms returns 0
T3644 000:708.797 JLINK_SetBPEx(Addr = 0x20000000, Type = 0xFFFFFFF2)
T3644 000:708.804 - 0.008ms returns 0x00000004
T3644 000:708.809 JLINK_Go()
T3644 000:708.817   CPU_WriteMem(4 bytes @ 0xE0002000)
T3644 000:709.506   CPU_ReadMem(4 bytes @ 0xE0001000)
T3644 000:712.919 - 4.117ms
T3644 000:712.933 JLINK_IsHalted()
T3644 000:714.920 - 1.993ms returns FALSE
T3644 000:714.932 JLINK_HasError()
T3644 000:718.460 JLINK_IsHalted()
T3644 000:719.522 - 1.081ms returns FALSE
T3644 000:719.553 JLINK_HasError()
T3644 000:722.589 JLINK_IsHalted()
T3644 000:723.503 - 0.921ms returns FALSE
T3644 000:723.516 JLINK_HasError()
T3644 000:724.817 JLINK_IsHalted()
T3644 000:725.920 - 1.110ms returns FALSE
T3644 000:725.933 JLINK_HasError()
T3644 000:727.824 JLINK_IsHalted()
T3644 000:728.499 - 0.678ms returns FALSE
T3644 000:728.507 JLINK_HasError()
T3644 000:729.829 JLINK_IsHalted()
T3644 000:730.921 - 1.098ms returns FALSE
T3644 000:730.932 JLINK_HasError()
T3644 000:732.836 JLINK_IsHalted()
T3644 000:733.500 - 0.669ms returns FALSE
T3644 000:733.511 JLINK_HasError()
T3644 000:734.899 JLINK_IsHalted()
T3644 000:735.505 - 0.615ms returns FALSE
T3644 000:735.522 JLINK_HasError()
T3644 000:736.909 JLINK_IsHalted()
T3644 000:737.502 - 0.595ms returns FALSE
T3644 000:737.510 JLINK_HasError()
T3644 000:738.917 JLINK_IsHalted()
T3644 000:739.502 - 0.591ms returns FALSE
T3644 000:739.514 JLINK_HasError()
T3644 000:740.926 JLINK_IsHalted()
T3644 000:741.500 - 0.578ms returns FALSE
T3644 000:741.509 JLINK_HasError()
T3644 000:742.931 JLINK_IsHalted()
T3644 000:745.940 - 3.014ms returns TRUE
T3644 000:745.951 JLINK_ReadReg(R15 (PC))
T3644 000:745.960   CPU_ReadMem(4 bytes @ 0xE000EE08)
T3644 000:746.503 - 0.555ms returns 0x20000000
T3644 000:746.510 JLINK_ClrBPEx(BPHandle = 0x00000004)
T3644 000:746.516 - 0.007ms returns 0x00
T3644 000:746.521 JLINK_ReadReg(R0)
T3644 000:746.527 - 0.007ms returns 0x00000000
T3644 000:746.910 JLINK_HasError()
T3644 000:746.920 JLINK_WriteReg(R0, 0x70000000)
T3644 000:746.928 - 0.009ms returns 0
T3644 000:746.933 JLINK_WriteReg(R1, 0x00B71B00)
T3644 000:746.939 - 0.007ms returns 0
T3644 000:746.944 JLINK_WriteReg(R2, 0x00000001)
T3644 000:746.949 - 0.007ms returns 0
T3644 000:746.954 JLINK_WriteReg(R3, 0x00000000)
T3644 000:746.959 - 0.007ms returns 0
T3644 000:746.968 JLINK_WriteReg(R4, 0x00000000)
T3644 000:746.972 - 0.007ms returns 0
T3644 000:746.978 JLINK_WriteReg(R5, 0x00000000)
T3644 000:746.982 - 0.007ms returns 0
T3644 000:746.988 JLINK_WriteReg(R6, 0x00000000)
T3644 000:746.992 - 0.007ms returns 0
T3644 000:746.998 JLINK_WriteReg(R7, 0x00000000)
T3644 000:747.003 - 0.007ms returns 0
T3644 000:747.008 JLINK_WriteReg(R8, 0x00000000)
T3644 000:747.013 - 0.007ms returns 0
T3644 000:747.018 JLINK_WriteReg(R9, 0x20000F8C)
T3644 000:747.023 - 0.007ms returns 0
T3644 000:747.028 JLINK_WriteReg(R10, 0x00000000)
T3644 000:747.033 - 0.007ms returns 0
T3644 000:747.038 JLINK_WriteReg(R11, 0x00000000)
T3644 000:747.043 - 0.006ms returns 0
T3644 000:747.048 JLINK_WriteReg(R12, 0x00000000)
T3644 000:747.053 - 0.006ms returns 0
T3644 000:747.058 JLINK_WriteReg(R13 (SP), 0x20004000)
T3644 000:747.063 - 0.007ms returns 0
T3644 000:747.068 JLINK_WriteReg(R14, 0x20000001)
T3644 000:747.078 - 0.011ms returns 0
T3644 000:747.083 JLINK_WriteReg(R15 (PC), 0x20000060)
T3644 000:747.088 - 0.007ms returns 0
T3644 000:747.093 JLINK_WriteReg(XPSR, 0x01000000)
T3644 000:747.098 - 0.007ms returns 0
T3644 000:747.103 JLINK_WriteReg(MSP, 0x20004000)
T3644 000:747.108 - 0.007ms returns 0
T3644 000:747.113 JLINK_WriteReg(PSP, 0x20004000)
T3644 000:747.118 - 0.006ms returns 0
T3644 000:747.123 JLINK_WriteReg(CFBP, 0x00000000)
T3644 000:747.128 - 0.007ms returns 0
T3644 000:747.133 JLINK_SetBPEx(Addr = 0x20000000, Type = 0xFFFFFFF2)
T3644 000:747.138 - 0.007ms returns 0x00000005
T3644 000:747.144 JLINK_Go()
T3644 000:747.151   CPU_WriteMem(4 bytes @ 0xE0002000)
T3644 000:747.925   CPU_ReadMem(4 bytes @ 0xE0001000)
T3644 000:752.515 - 5.388ms
T3644 000:752.541 JLINK_IsHalted()
T3644 000:755.959 - 3.432ms returns TRUE
T3644 000:755.981 JLINK_ReadReg(R15 (PC))
T3644 000:755.992   CPU_ReadMem(4 bytes @ 0xE000EE08)
T3644 000:756.504 - 0.527ms returns 0x20000000
T3644 000:756.512 JLINK_ClrBPEx(BPHandle = 0x00000005)
T3644 000:756.519 - 0.008ms returns 0x00
T3644 000:756.525 JLINK_ReadReg(R0)
T3644 000:756.530 - 0.007ms returns 0x00000000
T3644 000:808.328 JLINK_HasError()
T3644 000:808.349 JLINK_WriteReg(R0, 0x00000001)
T3644 000:808.362 - 0.015ms returns 0
T3644 000:808.368 JLINK_WriteReg(R1, 0x00B71B00)
T3644 000:808.374 - 0.007ms returns 0
T3644 000:808.379 JLINK_WriteReg(R2, 0x00000001)
T3644 000:808.384 - 0.007ms returns 0
T3644 000:808.389 JLINK_WriteReg(R3, 0x00000000)
T3644 000:808.394 - 0.007ms returns 0
T3644 000:808.399 JLINK_WriteReg(R4, 0x00000000)
T3644 000:808.404 - 0.007ms returns 0
T3644 000:808.409 JLINK_WriteReg(R5, 0x00000000)
T3644 000:808.414 - 0.006ms returns 0
T3644 000:808.419 JLINK_WriteReg(R6, 0x00000000)
T3644 000:808.424 - 0.006ms returns 0
T3644 000:808.429 JLINK_WriteReg(R7, 0x00000000)
T3644 000:808.434 - 0.006ms returns 0
T3644 000:808.439 JLINK_WriteReg(R8, 0x00000000)
T3644 000:808.444 - 0.006ms returns 0
T3644 000:808.449 JLINK_WriteReg(R9, 0x20000F8C)
T3644 000:808.454 - 0.007ms returns 0
T3644 000:808.459 JLINK_WriteReg(R10, 0x00000000)
T3644 000:808.464 - 0.007ms returns 0
T3644 000:808.469 JLINK_WriteReg(R11, 0x00000000)
T3644 000:808.474 - 0.006ms returns 0
T3644 000:808.479 JLINK_WriteReg(R12, 0x00000000)
T3644 000:808.484 - 0.006ms returns 0
T3644 000:808.489 JLINK_WriteReg(R13 (SP), 0x20004000)
T3644 000:808.495 - 0.008ms returns 0
T3644 000:808.500 JLINK_WriteReg(R14, 0x20000001)
T3644 000:808.505 - 0.006ms returns 0
T3644 000:808.510 JLINK_WriteReg(R15 (PC), 0x20000054)
T3644 000:808.515 - 0.007ms returns 0
T3644 000:808.520 JLINK_WriteReg(XPSR, 0x01000000)
T3644 000:808.525 - 0.007ms returns 0
T3644 000:808.530 JLINK_WriteReg(MSP, 0x20004000)
T3644 000:808.535 - 0.007ms returns 0
T3644 000:808.540 JLINK_WriteReg(PSP, 0x20004000)
T3644 000:808.545 - 0.006ms returns 0
T3644 000:808.550 JLINK_WriteReg(CFBP, 0x00000000)
T3644 000:808.555 - 0.007ms returns 0
T3644 000:808.560 JLINK_SetBPEx(Addr = 0x20000000, Type = 0xFFFFFFF2)
T3644 000:808.567 - 0.008ms returns 0x00000006
T3644 000:808.572 JLINK_Go()
T3644 000:808.580   CPU_WriteMem(4 bytes @ 0xE0002000)
T3644 000:809.512   CPU_ReadMem(4 bytes @ 0xE0001000)
T3644 000:812.923 - 4.358ms
T3644 000:812.938 JLINK_IsHalted()
T3644 000:815.939 - 3.008ms returns TRUE
T3644 000:815.953 JLINK_ReadReg(R15 (PC))
T3644 000:815.960   CPU_ReadMem(4 bytes @ 0xE000EE08)
T3644 000:816.508 - 0.561ms returns 0x20000000
T3644 000:816.521 JLINK_ClrBPEx(BPHandle = 0x00000006)
T3644 000:816.527 - 0.009ms returns 0x00
T3644 000:816.534 JLINK_ReadReg(R0)
T3644 000:816.541 - 0.008ms returns 0x00000000
T3644 000:822.302 JLINK_WriteMem(0x20000000, 0x9F4 Bytes, ...)
T3644 000:822.315   Data:  00 BE 0A E0 0D 78 2D 06 68 40 08 24 40 00 00 D3 ...
T3644 000:822.333   CPU_WriteMem(2548 bytes @ 0x20000000)
T3644 000:841.591 - 19.301ms returns 0x9F4
T3644 000:841.635 JLINK_HasError()
T3644 000:841.644 JLINK_WriteReg(R0, 0x00000000)
T3644 000:841.693 - 0.053ms returns 0
T3644 000:841.700 JLINK_WriteReg(R1, 0x00B71B00)
T3644 000:841.706 - 0.007ms returns 0
T3644 000:841.711 JLINK_WriteReg(R2, 0x00000002)
T3644 000:841.716 - 0.007ms returns 0
T3644 000:841.722 JLINK_WriteReg(R3, 0x00000000)
T3644 000:841.727 - 0.006ms returns 0
T3644 000:841.732 JLINK_WriteReg(R4, 0x00000000)
T3644 000:841.736 - 0.006ms returns 0
T3644 000:841.742 JLINK_WriteReg(R5, 0x00000000)
T3644 000:841.746 - 0.006ms returns 0
T3644 000:841.752 JLINK_WriteReg(R6, 0x00000000)
T3644 000:841.756 - 0.006ms returns 0
T3644 000:841.762 JLINK_WriteReg(R7, 0x00000000)
T3644 000:841.766 - 0.006ms returns 0
T3644 000:841.771 JLINK_WriteReg(R8, 0x00000000)
T3644 000:841.776 - 0.006ms returns 0
T3644 000:841.781 JLINK_WriteReg(R9, 0x200009D8)
T3644 000:841.786 - 0.007ms returns 0
T3644 000:841.791 JLINK_WriteReg(R10, 0x00000000)
T3644 000:841.796 - 0.007ms returns 0
T3644 000:841.801 JLINK_WriteReg(R11, 0x00000000)
T3644 000:841.806 - 0.006ms returns 0
T3644 000:841.811 JLINK_WriteReg(R12, 0x00000000)
T3644 000:841.816 - 0.006ms returns 0
T3644 000:841.821 JLINK_WriteReg(R13 (SP), 0x20004000)
T3644 000:841.827 - 0.008ms returns 0
T3644 000:841.833 JLINK_WriteReg(R14, 0x20000001)
T3644 000:841.837 - 0.007ms returns 0
T3644 000:841.843 JLINK_WriteReg(R15 (PC), 0x20000038)
T3644 000:841.848 - 0.007ms returns 0
T3644 000:841.853 JLINK_WriteReg(XPSR, 0x01000000)
T3644 000:841.858 - 0.007ms returns 0
T3644 000:841.863 JLINK_WriteReg(MSP, 0x20004000)
T3644 000:841.868 - 0.007ms returns 0
T3644 000:841.873 JLINK_WriteReg(PSP, 0x20004000)
T3644 000:841.878 - 0.007ms returns 0
T3644 000:841.883 JLINK_WriteReg(CFBP, 0x00000000)
T3644 000:841.888 - 0.006ms returns 0
T3644 000:841.893 JLINK_SetBPEx(Addr = 0x20000000, Type = 0xFFFFFFF2)
T3644 000:841.899 - 0.008ms returns 0x00000007
T3644 000:841.905 JLINK_Go()
T3644 000:841.912   CPU_WriteMem(4 bytes @ 0xE0002000)
T3644 000:842.511   CPU_ReadMem(4 bytes @ 0xE0001000)
T3644 000:847.927 - 6.028ms
T3644 000:847.940 JLINK_IsHalted()
T3644 000:852.952 - 5.021ms returns TRUE
T3644 000:852.971 JLINK_ReadReg(R15 (PC))
T3644 000:852.980   CPU_ReadMem(4 bytes @ 0xE000EE08)
T3644 000:853.930 - 0.966ms returns 0x20000000
T3644 000:853.944 JLINK_ClrBPEx(BPHandle = 0x00000007)
T3644 000:853.952 - 0.009ms returns 0x00
T3644 000:853.958 JLINK_ReadReg(R0)
T3644 000:853.964 - 0.008ms returns 0x00000000
T3644 000:854.325 JLINK_WriteMem(0x200009F4, 0x20C Bytes, ...)
T3644 000:854.334   Data:  F8 48 00 20 A5 02 00 00 B9 02 00 00 BB 02 00 00 ...
T3644 000:854.347   CPU_WriteMem(524 bytes @ 0x200009F4)
T3644 000:858.505 - 4.184ms returns 0x20C
T3644 000:858.514 JLINK_WriteMem(0x20000C00, 0x400 Bytes, ...)
T3644 000:858.519   Data:  01 6B F9 D1 13 F0 08 0F 1E BF 10 F8 01 4B AD 1C ...
T3644 000:858.530   CPU_WriteMem(1024 bytes @ 0x20000C00)
T3644 000:867.932 - 9.425ms returns 0x400
T3644 000:867.946 JLINK_WriteMem(0x20001000, 0x400 Bytes, ...)
T3644 000:867.951   Data:  00 F8 01 2B 70 47 02 F0 FF 03 43 EA 03 22 42 EA ...
T3644 000:867.968   CPU_WriteMem(1024 bytes @ 0x20001000)
T3644 000:876.929 - 8.991ms returns 0x400
T3644 000:876.943 JLINK_WriteMem(0x20001400, 0x400 Bytes, ...)
T3644 000:876.948   Data:  22 F0 08 02 02 60 02 68 42 F4 70 62 02 60 02 68 ...
T3644 000:876.960   CPU_WriteMem(1024 bytes @ 0x20001400)
T3644 000:884.510 - 7.574ms returns 0x400
T3644 000:884.525 JLINK_WriteMem(0x20001800, 0x1F4 Bytes, ...)
T3644 000:884.530   Data:  C0 69 C8 40 00 F0 01 00 70 47 00 00 01 05 1C BF ...
T3644 000:884.543   CPU_WriteMem(500 bytes @ 0x20001800)
T3644 000:888.931 - 4.414ms returns 0x1F4
T3644 000:888.948 JLINK_HasError()
T3644 000:888.988 JLINK_WriteReg(R0, 0x00000000)
T3644 000:888.998 - 0.013ms returns 0
T3644 000:889.005 JLINK_WriteReg(R1, 0x00001000)
T3644 000:889.011 - 0.008ms returns 0
T3644 000:889.017 JLINK_WriteReg(R2, 0x200009F4)
T3644 000:889.022 - 0.008ms returns 0
T3644 000:889.028 JLINK_WriteReg(R3, 0x00000000)
T3644 000:889.034 - 0.008ms returns 0
T3644 000:889.040 JLINK_WriteReg(R4, 0x00000000)
T3644 000:889.049 - 0.012ms returns 0
T3644 000:889.056 JLINK_WriteReg(R5, 0x00000000)
T3644 000:889.062 - 0.007ms returns 0
T3644 000:889.068 JLINK_WriteReg(R6, 0x00000000)
T3644 000:889.073 - 0.007ms returns 0
T3644 000:889.079 JLINK_WriteReg(R7, 0x00000000)
T3644 000:889.084 - 0.007ms returns 0
T3644 000:889.090 JLINK_WriteReg(R8, 0x00000000)
T3644 000:889.096 - 0.008ms returns 0
T3644 000:889.102 JLINK_WriteReg(R9, 0x200009D8)
T3644 000:889.107 - 0.007ms returns 0
T3644 000:889.113 JLINK_WriteReg(R10, 0x00000000)
T3644 000:889.119 - 0.008ms returns 0
T3644 000:889.125 JLINK_WriteReg(R11, 0x00000000)
T3644 000:889.130 - 0.007ms returns 0
T3644 000:889.136 JLINK_WriteReg(R12, 0x00000000)
T3644 000:889.141 - 0.007ms returns 0
T3644 000:889.147 JLINK_WriteReg(R13 (SP), 0x20004000)
T3644 000:889.153 - 0.008ms returns 0
T3644 000:889.159 JLINK_WriteReg(R14, 0x20000001)
T3644 000:889.165 - 0.008ms returns 0
T3644 000:889.171 JLINK_WriteReg(R15 (PC), 0x2000012C)
T3644 000:889.176 - 0.008ms returns 0
T3644 000:889.182 JLINK_WriteReg(XPSR, 0x01000000)
T3644 000:889.188 - 0.007ms returns 0
T3644 000:889.194 JLINK_WriteReg(MSP, 0x20004000)
T3644 000:889.199 - 0.007ms returns 0
T3644 000:889.205 JLINK_WriteReg(PSP, 0x20004000)
T3644 000:889.211 - 0.008ms returns 0
T3644 000:889.216 JLINK_WriteReg(CFBP, 0x00000000)
T3644 000:889.222 - 0.007ms returns 0
T3644 000:889.228 JLINK_SetBPEx(Addr = 0x20000000, Type = 0xFFFFFFF2)
T3644 000:889.234 - 0.008ms returns 0x00000008
T3644 000:889.240 JLINK_Go()
T3644 000:889.248   CPU_WriteMem(4 bytes @ 0xE0002000)
T3644 000:889.930   CPU_ReadMem(4 bytes @ 0xE0001000)
T3644 000:893.927 - 4.692ms
T3644 000:893.938 JLINK_IsHalted()
T3644 000:894.507 - 0.571ms returns FALSE
T3644 000:894.514 JLINK_HasError()
T3644 000:901.510 JLINK_IsHalted()
T3644 000:902.510 - 1.007ms returns FALSE
T3644 000:902.523 JLINK_HasError()
T3644 000:904.507 JLINK_IsHalted()
T3644 000:905.509 - 1.005ms returns FALSE
T3644 000:905.517 JLINK_HasError()
T3644 000:907.657 JLINK_IsHalted()
T3644 000:908.507 - 0.852ms returns FALSE
T3644 000:908.515 JLINK_HasError()
T3644 000:910.511 JLINK_IsHalted()
T3644 000:910.926 - 0.418ms returns FALSE
T3644 000:910.934 JLINK_HasError()
T3644 000:912.924 JLINK_IsHalted()
T3644 000:913.505 - 0.584ms returns FALSE
T3644 000:913.512 JLINK_HasError()
T3644 000:915.025 JLINK_IsHalted()
T3644 000:915.506 - 0.484ms returns FALSE
T3644 000:915.513 JLINK_HasError()
T3644 000:917.511 JLINK_IsHalted()
T3644 000:917.928 - 0.421ms returns FALSE
T3644 000:917.937 JLINK_HasError()
T3644 000:919.523 JLINK_IsHalted()
T3644 000:919.927 - 0.408ms returns FALSE
T3644 000:919.935 JLINK_HasError()
T3644 000:921.924 JLINK_IsHalted()
T3644 000:922.509 - 0.591ms returns FALSE
T3644 000:922.520 JLINK_HasError()
T3644 000:924.512 JLINK_IsHalted()
T3644 000:927.944 - 3.435ms returns TRUE
T3644 000:927.953 JLINK_ReadReg(R15 (PC))
T3644 000:927.961   CPU_ReadMem(4 bytes @ 0xE000EE08)
T3644 000:928.510 - 0.560ms returns 0x20000000
T3644 000:928.518 JLINK_ClrBPEx(BPHandle = 0x00000008)
T3644 000:928.524 - 0.008ms returns 0x00
T3644 000:928.530 JLINK_ReadReg(R0)
T3644 000:928.536 - 0.008ms returns 0x00000000
T3644 000:929.203 JLINK_WriteMem(0x200009F4, 0x20C Bytes, ...)
T3644 000:929.212   Data:  20 60 00 20 20 71 02 B0 70 BD 00 00 00 EB 81 00 ...
T3644 000:929.224   CPU_WriteMem(524 bytes @ 0x200009F4)
T3644 000:934.512 - 5.316ms returns 0x20C
T3644 000:934.527 JLINK_WriteMem(0x20000C00, 0x400 Bytes, ...)
T3644 000:934.534   Data:  04 BF 00 20 70 47 01 6A 49 07 42 BF 00 BF 01 6A ...
T3644 000:934.547   CPU_WriteMem(1024 bytes @ 0x20000C00)
T3644 000:942.942 - 8.428ms returns 0x400
T3644 000:942.968 JLINK_WriteMem(0x20001000, 0x400 Bytes, ...)
T3644 000:942.976   Data:  C0 F8 00 13 70 BD 00 00 B0 B5 08 22 C4 F2 00 02 ...
T3644 000:942.994   CPU_WriteMem(1024 bytes @ 0x20001000)
T3644 000:951.521 - 8.566ms returns 0x400
T3644 000:951.544 JLINK_WriteMem(0x20001400, 0x400 Bytes, ...)
T3644 000:951.551   Data:  F4 D1 70 47 80 B5 2C F0 2B FE 01 20 BD E8 80 40 ...
T3644 000:951.573   CPU_WriteMem(1024 bytes @ 0x20001400)
T3644 000:959.941 - 8.411ms returns 0x400
T3644 000:959.966 JLINK_WriteMem(0x20001800, 0x1F4 Bytes, ...)
T3644 000:959.972   Data:  C4 F2 04 04 48 F6 40 45 48 F6 BF 1E A0 42 C4 F2 ...
T3644 000:959.989   CPU_WriteMem(500 bytes @ 0x20001800)
T3644 000:964.523 - 4.565ms returns 0x1F4
T3644 000:964.540 JLINK_HasError()
T3644 000:964.581 JLINK_WriteReg(R0, 0x00001000)
T3644 000:964.592 - 0.013ms returns 0
T3644 000:964.598 JLINK_WriteReg(R1, 0x00001000)
T3644 000:964.605 - 0.009ms returns 0
T3644 000:964.611 JLINK_WriteReg(R2, 0x200009F4)
T3644 000:964.617 - 0.008ms returns 0
T3644 000:964.623 JLINK_WriteReg(R3, 0x00000000)
T3644 000:964.628 - 0.008ms returns 0
T3644 000:964.634 JLINK_WriteReg(R4, 0x00000000)
T3644 000:964.639 - 0.007ms returns 0
T3644 000:964.645 JLINK_WriteReg(R5, 0x00000000)
T3644 000:964.651 - 0.008ms returns 0
T3644 000:964.657 JLINK_WriteReg(R6, 0x00000000)
T3644 000:964.662 - 0.007ms returns 0
T3644 000:964.668 JLINK_WriteReg(R7, 0x00000000)
T3644 000:964.674 - 0.007ms returns 0
T3644 000:964.679 JLINK_WriteReg(R8, 0x00000000)
T3644 000:964.685 - 0.007ms returns 0
T3644 000:964.691 JLINK_WriteReg(R9, 0x200009D8)
T3644 000:964.696 - 0.007ms returns 0
T3644 000:964.702 JLINK_WriteReg(R10, 0x00000000)
T3644 000:964.707 - 0.007ms returns 0
T3644 000:964.713 JLINK_WriteReg(R11, 0x00000000)
T3644 000:964.719 - 0.007ms returns 0
T3644 000:964.724 JLINK_WriteReg(R12, 0x00000000)
T3644 000:964.730 - 0.007ms returns 0
T3644 000:964.736 JLINK_WriteReg(R13 (SP), 0x20004000)
T3644 000:964.742 - 0.008ms returns 0
T3644 000:964.748 JLINK_WriteReg(R14, 0x20000001)
T3644 000:964.753 - 0.007ms returns 0
T3644 000:964.759 JLINK_WriteReg(R15 (PC), 0x2000012C)
T3644 000:964.765 - 0.008ms returns 0
T3644 000:964.771 JLINK_WriteReg(XPSR, 0x01000000)
T3644 000:964.776 - 0.007ms returns 0
T3644 000:964.782 JLINK_WriteReg(MSP, 0x20004000)
T3644 000:964.788 - 0.007ms returns 0
T3644 000:964.794 JLINK_WriteReg(PSP, 0x20004000)
T3644 000:964.799 - 0.007ms returns 0
T3644 000:964.805 JLINK_WriteReg(CFBP, 0x00000000)
T3644 000:964.810 - 0.007ms returns 0
T3644 000:964.816 JLINK_SetBPEx(Addr = 0x20000000, Type = 0xFFFFFFF2)
T3644 000:964.822 - 0.008ms returns 0x00000009
T3644 000:964.829 JLINK_Go()
T3644 000:964.836   CPU_WriteMem(4 bytes @ 0xE0002000)
T3644 000:965.513   CPU_ReadMem(4 bytes @ 0xE0001000)
T3644 000:969.931 - 5.111ms
T3644 000:969.945 JLINK_IsHalted()
T3644 000:970.509 - 0.567ms returns FALSE
T3644 000:970.516 JLINK_HasError()
T3644 000:973.513 JLINK_IsHalted()
T3644 000:973.929 - 0.420ms returns FALSE
T3644 000:973.938 JLINK_HasError()
T3644 000:975.928 JLINK_IsHalted()
T3644 000:976.929 - 1.003ms returns FALSE
T3644 000:976.936 JLINK_HasError()
T3644 000:978.926 JLINK_IsHalted()
T3644 000:979.508 - 0.584ms returns FALSE
T3644 000:979.515 JLINK_HasError()
T3644 000:981.020 JLINK_IsHalted()
T3644 000:981.509 - 0.491ms returns FALSE
T3644 000:981.516 JLINK_HasError()
T3644 000:983.509 JLINK_IsHalted()
T3644 000:983.930 - 0.427ms returns FALSE
T3644 000:983.941 JLINK_HasError()
T3644 000:985.722 JLINK_IsHalted()
T3644 000:986.511 - 0.796ms returns FALSE
T3644 000:986.523 JLINK_HasError()
T3644 000:988.526 JLINK_IsHalted()
T3644 000:988.929 - 0.406ms returns FALSE
T3644 000:988.937 JLINK_HasError()
T3644 000:990.533 JLINK_IsHalted()
T3644 000:990.932 - 0.404ms returns FALSE
T3644 000:990.943 JLINK_HasError()
T3644 000:992.541 JLINK_IsHalted()
T3644 000:992.928 - 0.391ms returns FALSE
T3644 000:992.937 JLINK_HasError()
T3644 000:994.546 JLINK_IsHalted()
T3644 000:994.929 - 0.386ms returns FALSE
T3644 000:994.936 JLINK_HasError()
T3644 000:996.549 JLINK_IsHalted()
T3644 000:996.928 - 0.382ms returns FALSE
T3644 000:996.936 JLINK_HasError()
T3644 000:998.556 JLINK_IsHalted()
T3644 001:001.966 - 3.420ms returns TRUE
T3644 001:001.983 JLINK_ReadReg(R15 (PC))
T3644 001:001.996   CPU_ReadMem(4 bytes @ 0xE000EE08)
T3644 001:002.935 - 0.961ms returns 0x20000000
T3644 001:002.952 JLINK_ClrBPEx(BPHandle = 0x00000009)
T3644 001:002.959 - 0.009ms returns 0x00
T3644 001:002.965 JLINK_ReadReg(R0)
T3644 001:002.971 - 0.008ms returns 0x00000000
T3644 001:003.560 JLINK_WriteMem(0x200009F4, 0x20C Bytes, ...)
T3644 001:003.569   Data:  28 DD 70 45 4A DD 48 F6 3F 21 C4 F2 04 01 88 42 ...
T3644 001:003.582   CPU_WriteMem(524 bytes @ 0x200009F4)
T3644 001:007.512 - 3.956ms returns 0x20C
T3644 001:007.521 JLINK_WriteMem(0x20000C00, 0x400 Bytes, ...)
T3644 001:007.526   Data:  4E F2 08 10 CE F2 00 00 4F F4 80 01 01 60 F0 BD ...
T3644 001:007.536   CPU_WriteMem(1024 bytes @ 0x20000C00)
T3644 001:016.511 - 8.997ms returns 0x400
T3644 001:016.526 JLINK_WriteMem(0x20001000, 0x400 Bytes, ...)
T3644 001:016.532   Data:  6F F0 20 00 02 E0 00 BF 6F F0 02 00 0A 46 11 68 ...
T3644 001:016.544   CPU_WriteMem(1024 bytes @ 0x20001000)
T3644 001:023.935 - 7.417ms returns 0x400
T3644 001:023.953 JLINK_WriteMem(0x20001400, 0x400 Bytes, ...)
T3644 001:023.958   Data:  29 F4 00 64 30 46 29 46 3B 46 02 94 00 F0 EE F8 ...
T3644 001:023.973   CPU_WriteMem(1024 bytes @ 0x20001400)
T3644 001:032.513 - 8.567ms returns 0x400
T3644 001:032.527 JLINK_WriteMem(0x20001800, 0x1F4 Bytes, ...)
T3644 001:032.532   Data:  0F 9B 00 20 2C E0 00 BF 27 46 E8 E2 27 46 E6 E2 ...
T3644 001:032.542   CPU_WriteMem(500 bytes @ 0x20001800)
T3644 001:036.935 - 4.417ms returns 0x1F4
T3644 001:036.952 JLINK_HasError()
T3644 001:036.988 JLINK_WriteReg(R0, 0x00002000)
T3644 001:036.997 - 0.012ms returns 0
T3644 001:037.003 JLINK_WriteReg(R1, 0x00001000)
T3644 001:037.009 - 0.008ms returns 0
T3644 001:037.014 JLINK_WriteReg(R2, 0x200009F4)
T3644 001:037.019 - 0.007ms returns 0
T3644 001:037.025 JLINK_WriteReg(R3, 0x00000000)
T3644 001:037.030 - 0.007ms returns 0
T3644 001:037.035 JLINK_WriteReg(R4, 0x00000000)
T3644 001:037.040 - 0.007ms returns 0
T3644 001:037.045 JLINK_WriteReg(R5, 0x00000000)
T3644 001:037.050 - 0.007ms returns 0
T3644 001:037.055 JLINK_WriteReg(R6, 0x00000000)
T3644 001:037.060 - 0.007ms returns 0
T3644 001:037.065 JLINK_WriteReg(R7, 0x00000000)
T3644 001:037.070 - 0.006ms returns 0
T3644 001:037.075 JLINK_WriteReg(R8, 0x00000000)
T3644 001:037.080 - 0.006ms returns 0
T3644 001:037.085 JLINK_WriteReg(R9, 0x200009D8)
T3644 001:037.090 - 0.007ms returns 0
T3644 001:037.095 JLINK_WriteReg(R10, 0x00000000)
T3644 001:037.100 - 0.007ms returns 0
T3644 001:037.105 JLINK_WriteReg(R11, 0x00000000)
T3644 001:037.110 - 0.007ms returns 0
T3644 001:037.115 JLINK_WriteReg(R12, 0x00000000)
T3644 001:037.120 - 0.006ms returns 0
T3644 001:037.125 JLINK_WriteReg(R13 (SP), 0x20004000)
T3644 001:037.131 - 0.008ms returns 0
T3644 001:037.136 JLINK_WriteReg(R14, 0x20000001)
T3644 001:037.141 - 0.007ms returns 0
T3644 001:037.146 JLINK_WriteReg(R15 (PC), 0x2000012C)
T3644 001:037.151 - 0.007ms returns 0
T3644 001:037.157 JLINK_WriteReg(XPSR, 0x01000000)
T3644 001:037.162 - 0.007ms returns 0
T3644 001:037.167 JLINK_WriteReg(MSP, 0x20004000)
T3644 001:037.172 - 0.007ms returns 0
T3644 001:037.177 JLINK_WriteReg(PSP, 0x20004000)
T3644 001:037.182 - 0.006ms returns 0
T3644 001:037.187 JLINK_WriteReg(CFBP, 0x00000000)
T3644 001:037.192 - 0.007ms returns 0
T3644 001:037.197 JLINK_SetBPEx(Addr = 0x20000000, Type = 0xFFFFFFF2)
T3644 001:037.203 - 0.007ms returns 0x0000000A
T3644 001:037.208 JLINK_Go()
T3644 001:037.215   CPU_WriteMem(4 bytes @ 0xE0002000)
T3644 001:037.937   CPU_ReadMem(4 bytes @ 0xE0001000)
T3644 001:043.938 - 6.736ms
T3644 001:043.950 JLINK_IsHalted()
T3644 001:045.932 - 1.987ms returns FALSE
T3644 001:045.944 JLINK_HasError()
T3644 001:047.419 JLINK_IsHalted()
T3644 001:047.931 - 0.515ms returns FALSE
T3644 001:047.938 JLINK_HasError()
T3644 001:050.418 JLINK_IsHalted()
T3644 001:051.517 - 1.106ms returns FALSE
T3644 001:051.531 JLINK_HasError()
T3644 001:053.421 JLINK_IsHalted()
T3644 001:053.929 - 0.514ms returns FALSE
T3644 001:053.942 JLINK_HasError()
T3644 001:055.420 JLINK_IsHalted()
T3644 001:056.515 - 1.102ms returns FALSE
T3644 001:056.531 JLINK_HasError()
T3644 001:057.924 JLINK_IsHalted()
T3644 001:058.933 - 1.014ms returns FALSE
T3644 001:058.944 JLINK_HasError()
T3644 001:060.928 JLINK_IsHalted()
T3644 001:061.513 - 0.591ms returns FALSE
T3644 001:061.525 JLINK_HasError()
T3644 001:063.597 JLINK_IsHalted()
T3644 001:063.931 - 0.337ms returns FALSE
T3644 001:063.938 JLINK_HasError()
T3644 001:066.993 JLINK_IsHalted()
T3644 001:067.561 - 0.577ms returns FALSE
T3644 001:067.579 JLINK_HasError()
T3644 001:069.001 JLINK_IsHalted()
T3644 001:069.512 - 0.516ms returns FALSE
T3644 001:069.522 JLINK_HasError()
T3644 001:071.006 JLINK_IsHalted()
T3644 001:071.513 - 0.514ms returns FALSE
T3644 001:071.525 JLINK_HasError()
T3644 001:074.016 JLINK_IsHalted()
T3644 001:076.956 - 2.946ms returns TRUE
